
**** 07/15/21 14:47:20 ******* PSpice 17.4.0 (Nov 2018) ******* ID# 0 ********

 ** Profile: "SCHEMATIC1-sim1"  [ C:\Modeling\LM393LV_ti\lm393lv-pspicefiles\schematic1\sim1.sim ] 


 ****     CIRCUIT DESCRIPTION


******************************************************************************




** Creating circuit file "sim1.cir" 
** WARNING: THIS AUTOMATICALLY GENERATED FILE MAY BE OVERWRITTEN BY SUBSEQUENT SIMULATIONS

*Libraries: 
* Profile Libraries :
* Local Libraries :
.LIB "../../../lm393lv.lib" 
* From [PSPICE NETLIST] section of C:\SPB_DATA\cdssetup\OrCAD_PSpice\17.4.0\PSpice.ini file:
.lib "nom.lib" 

*Analysis directives: 
.TRAN  0 30u 0 
.OPTIONS ADVCONV
.PROBE64 V(alias(*)) I(alias(*)) W(alias(*)) D(alias(*)) NOISE(alias(*)) 
.INC "..\SCHEMATIC1.net" 



**** INCLUDING SCHEMATIC1.net ****
* source LM393LV
.EXTERNAL INPUT OUT
.EXTERNAL INPUT IN+
.EXTERNAL INPUT IN-
.EXTERNAL INPUT GND
.EXTERNAL INPUT V+
R_R3         V+ OUT  10k TC=0,0 
V_VINN2         V+ 0 2
R_R2         0 GND  1m TC=0,0 
V_VINN         IN- 0 2.5
V_V1         IN+ 0  
+SIN 2.5 200m 100k 0 0 0
X_U1         IN+ IN- V+ GND OUT LM393LV

**** RESUMING sim1.cir ****
.END

**** 07/15/21 14:47:20 ******* PSpice 17.4.0 (Nov 2018) ******* ID# 0 ********

 ** Profile: "SCHEMATIC1-sim1"  [ C:\Modeling\LM393LV_ti\lm393lv-pspicefiles\schematic1\sim1.sim ] 


 ****     Voltage Controlled Switch MODEL PARAMETERS


******************************************************************************




               X_U1.X_U5.X_SMID._SMID 
         RON    1            
        ROFF    1.000000E+12 
         VON    0            
        VOFF    1            


               X_U1.X_U5.X_SHIZ._SHIZ 
         RON    1            
        ROFF    1.000000E+12 
         VON    0            
        VOFF    1            


               X_U1.X_U5.X_SVOL._SVOL 
         RON    1            
        ROFF    1.000000E+12 
         VON    0            
        VOFF    1            


**** 07/15/21 14:47:20 ******* PSpice 17.4.0 (Nov 2018) ******* ID# 0 ********

 ** Profile: "SCHEMATIC1-sim1"  [ C:\Modeling\LM393LV_ti\lm393lv-pspicefiles\schematic1\sim1.sim ] 


 ****     INITIAL TRANSIENT SOLUTION       TEMPERATURE =   27.000 DEG C


******************************************************************************



 NODE   VOLTAGE     NODE   VOLTAGE     NODE   VOLTAGE     NODE   VOLTAGE


(   V+)    2.0000  (  GND) 25.00E-09  (  IN+)    2.5000  (  IN-)    2.5000      

(  OUT)    2.0000  (X_U1.N21103)    1.9802               (X_U1.N21168) 25.00E-09

(X_U1.N21237)    0.0000               (X_U1.IN+BUFF)    2.5000                  

(X_U1.IN-BUFF)    2.5000              (X_U1.N785573)    2.5004                  

(X_U1.N786723)    0.0000              (X_U1.N843683)    2.0000                  

(X_U1.N852568)    0.0000              (X_U1.N857104)     .9901                  

(X_U1.N857135)    1.9802              (X_U1.X_U3.VH)    0.0000                  

(X_U1.X_U5.1V)    1.0000              (X_U1.X_U7.1V)    1.0000                  

(X_U1.X_U3.OUT)    2.0000             (X_U1.X_U5.MID)    1.0000                 

(X_U1.V+_BUFFER)    2.0000            (X_U1.V-_BUFFER) 25.00E-09                

(X_U1.X_U3.VMID)    1.0000            (X_U1.X_U2.N20155)    5.6000              

(X_U1.X_U2.N20415)    -.1000          (X_U1.X_U2.N20531) 25.00E-09              

(X_U1.X_U2.N20539)    -.1000          (X_U1.X_U2.N20826) 25.00E-09              

(X_U1.X_U2.N20833) 25.00E-09          (X_U1.X_U2.N20840) 25.00E-09              

(X_U1.X_U3.INNNEW)    2.5000          (X_U1.X_U4.N03175)     .9901              

(X_U1.X_U5.X_U3.3)    2.0000          (X_U1.X_U5.X_U8.6)    0.0000              

(X_U1.X_U2.N202710)    5.6000         (X_U1.X_U2.X_U24.6) 25.00E-09             

(X_U1.X_U5.N774212)    2.0000         (X_U1.X_U5.N774290)    1.0000             

(X_U1.X_U5.N778484)    2.0000         (X_U1.X_U5.N778496)    2.0000             

(X_U1.X_U5.N789513)    1.0000         (X_U1.X_U5.N850209)    2.0000             

(X_U1.X_U5.X_U10.4)    1.0000         (X_U1.X_U7.N785597)    5.5000             

(X_U1.X_U7.N785687)    2.0000         (X_U1.X_U7.N785701)    0.0000             

(X_U1.X_U7.N785811)    0.0000         (X_U1.X_U7.N785913)    1.6400             

(X_U1.X_U7.N786085)    1.6400         (X_U1.X_U7.X_U17.4)    0.0000             

(X_U1.X_U2.X_U1.OUT2) 25.00E-09       (X_U1.X_U5.X_U7.VMID)    1.0000           

(X_U1.X_U7.X_U5.OUT2)    0.0000       (X_U1.X_U2.X_U21.OUT2) 25.00E-09          

(X_U1.X_U2.X_U22.OUT2) 25.00E-09      (X_U1.X_U2.X_U23.OUT2) 25.00E-09          

(X_U1.X_U7.X_U13.OUT1)    2.0000      (X_U1.X_U7.X_U15.OUT2)    0.0000          

(X_U1.X_U7.X_U16.OUT2)    0.0000      (X_U1.X_U5.CONTROL_HIZ)    0.0000         

(X_U1.X_U5.CONTROL_MID)    1.0000     




    VOLTAGE SOURCE CURRENTS
    NAME         CURRENT

    V_VINN2     -2.500E-05
    V_VINN      -7.500E-12
    V_V1        -7.500E-12
    X_U1.V_VOS   0.000E+00
    X_U1.V_VHYST   0.000E+00
    X_U1.X_U2.V_VCMNP   0.000E+00
    X_U1.X_U2.V_VCMPN   0.000E+00
    X_U1.X_U2.V_VCMPP   0.000E+00
    X_U1.X_U2.V_VCMNN   0.000E+00
    X_U1.X_U5.V_VLOGIC   0.000E+00
    X_U1.X_U5.V_V1  -1.001E-09
    X_U1.X_U7.V_VS_MAX_SET   0.000E+00
    X_U1.X_U7.V_VS_MIN_SET   0.000E+00
    X_U1.X_U7.V_VS_MIN_SET1   0.000E+00
    X_U1.X_U7.V_VLOGIC   0.000E+00

    TOTAL POWER DISSIPATION   5.00E-05  WATTS



          JOB CONCLUDED

**** 07/15/21 14:47:20 ******* PSpice 17.4.0 (Nov 2018) ******* ID# 0 ********

 ** Profile: "SCHEMATIC1-sim1"  [ C:\Modeling\LM393LV_ti\lm393lv-pspicefiles\schematic1\sim1.sim ] 


 ****     JOB STATISTICS SUMMARY


******************************************************************************



  License check-out time            =       20.33
  Total job time (using Solver 1)   =         .05
